Circuit: * C:\Users\e2202683\Downloads\Inverting_and_LIB\Draft1.asc

Direct Newton iteration for .op point succeeded.
Semiconductor Device Operating Points:
                        --- Diodes ---
Name:    d:u2:3      d:u2:4      d:u2:6      d:u2:5      d:u2:2
Model:    u2:dx       u2:dx       u2:dx       u2:dx       u2:dx
Id:     -1.81e-13   -1.81e-13    7.63e-05    7.62e-05   -1.04e-11
Vd:     -1.80e-01   -1.80e-01    6.48e-01    6.48e-01   -1.04e+01
Req:     1.00e+12    1.00e+12    3.39e+02    3.40e+02    1.00e+12
CAP:     0.00e+00    0.00e+00    0.00e+00    0.00e+00    0.00e+00

Name:    d:u2:1        d2          d1        d:u1:3      d:u1:4
Model:    u2:dx      1n4148      1n4148       u1:dx       u1:dx
Id:     -1.04e-11   -6.81e-10   -2.52e-09   -1.81e-13   -1.81e-13
Vd:     -1.04e+01   -1.43e-02   -4.99e+00   -1.80e-01   -1.80e-01
Req:     1.00e+12    2.46e+07    1.00e+12    1.00e+12    1.00e+12
CAP:     0.00e+00    3.98e-12    1.96e-12    0.00e+00    0.00e+00

Name:    d:u1:6      d:u1:5      d:u1:2      d:u1:1
Model:    u1:dx       u1:dx       u1:dx       u1:dx
Id:      7.63e-05    7.61e-05   -1.10e-11   -9.79e-12
Vd:      6.48e-01    6.48e-01   -1.10e+01   -9.79e+00
Req:     3.39e+02    3.40e+02    1.00e+12    1.00e+12
CAP:     0.00e+00    0.00e+00    0.00e+00    0.00e+00

                        --- Bipolar Transistors ---
Name:     q:u2:2      q:u2:1        q1        q:u1:2      q:u1:1
Model:     u2:qx       u2:qx      bc547b       u1:qx       u1:qx
Ib:       7.99e-08    7.99e-08    1.72e-07    7.99e-08    7.99e-08
Ic:       4.99e-05    4.99e-05    5.72e-05    4.99e-05    4.99e-05
Vbe:      6.97e-01    6.97e-01    5.59e-01    6.97e-01    6.97e-01
Vbc:     -1.20e+01   -1.20e+01   -1.14e+01   -1.20e+01   -1.20e+01
Vce:      1.27e+01    1.27e+01    1.20e+01    1.27e+01    1.27e+01
BetaDC:   6.25e+02    6.25e+02    3.32e+02    6.25e+02    6.25e+02
Gm:       1.93e-03    1.93e-03    2.19e-03    1.93e-03    1.93e-03
Rpi:      3.24e+05    3.24e+05    1.53e+05    3.24e+05    3.24e+05
Rx:       0.00e+00    0.00e+00    1.00e+00    0.00e+00    0.00e+00
Ro:       0.00e+00    0.00e+00    1.28e+06    0.00e+00    0.00e+00
Cbe:      0.00e+00    0.00e+00    2.69e-11    0.00e+00    0.00e+00
Cbc:      0.00e+00    0.00e+00    8.49e-13    0.00e+00    0.00e+00
Cjs:      0.00e+00    0.00e+00    0.00e+00    0.00e+00    0.00e+00
BetaAC:   6.25e+02    6.25e+02    3.35e+02    6.25e+02    6.25e+02
Cbx:      0.00e+00    0.00e+00    5.22e-13    0.00e+00    0.00e+00
Ft:       0.00e+00    0.00e+00    1.24e+07    0.00e+00    0.00e+00



Date: Fri Sep 12 14:52:12 2025
Total elapsed time: 1.120 seconds.

tnom = 27
temp = 27
method = trap
totiter = 12
traniter = 0
tranpoints = 0
accept = 0
rejected = 0
matrix size = 81
fillins = 98
solver = Normal
Matrix Compiler1: 8.88 KB object code size
Matrix Compiler2: 8.47 KB object code size
