Circuit: * U:\Year4\Design_of_Digital_Devices\Block_Diagram\Diagram - Copy.asc

Ignoring empty pin current: Ix(u1:1)
Ignoring empty pin current: Ix(u1:2)
Ignoring empty pin current: Ix(u1:3)
Ignoring empty pin current: Ix(u1:4)
Ignoring empty pin current: Ix(u1:5)
Ignoring empty pin current: Ix(u2:1)
Ignoring empty pin current: Ix(u2:2)
Ignoring empty pin current: Ix(u2:3)
Ignoring empty pin current: Ix(u2:4)
Ignoring empty pin current: Ix(u2:5)
Ignoring empty pin current: Ix(u3:1)
Ignoring empty pin current: Ix(u3:2)
Ignoring empty pin current: Ix(u3:3)
Ignoring empty pin current: Ix(u3:4)
Ignoring empty pin current: Ix(u3:5)
Ignoring empty pin current: Ix(x3:vin-12)
Ignoring empty pin current: Ix(x1:vin-12)
Ignoring empty pin current: Ix(x1:vin)
Early termination of direct N-R iteration.
Direct Newton iteration failed to find .op point.  (Use ".option noopiter" to skip.)
Starting Gmin stepping
Gmin = 10
vernier = 0.5
vernier = 0.25
vernier = 0.125
Gmin = 5.5165
vernier = 0.0625
vernier = 0.03125
vernier = 0.015625
vernier = 0.0078125
Gmin = 5.49501
vernier = 0.00390625
vernier = 0.00195313
vernier = 0.000976563
vernier = 0.000488281
Gmin = 5.50104
Gmin = 0
Gmin stepping failed

Starting source stepping with srcstepmethod=0
Source Step = 3.0303%
Source Step = 33.3333%
Source Step = 63.6364%
Source Step = 93.9394%
Source stepping succeeded in finding the operating point.

Semiconductor Device Operating Points:
                        --- Diodes ---
Name:   d:x1:u3:p  d:x1:u3:ln  d:x1:u3:lp   d:x1:u3:e   d:x1:u3:c
Model:  x1:u3:dx    x1:u3:dx    x1:u3:dx    x1:u3:dx    x1:u3:dx
Id:     -2.40e-11   -2.50e-11   -2.50e-11   -1.01e-11   -9.50e-12
Vd:     -2.40e+01   -2.50e+01   -2.50e+01   -1.01e+01   -9.50e+00
Req:     1.00e+12    1.00e+12    1.00e+12    1.00e+12    1.00e+12
CAP:     0.00e+00    0.00e+00    0.00e+00    0.00e+00    0.00e+00

Name:   d:x1:u2:p  d:x1:u2:ln  d:x1:u2:lp   d:x1:u2:e   d:x1:u2:c
Model:  x1:u2:dx    x1:u2:dx    x1:u2:dx    x1:u2:dx    x1:u2:dx
Id:     -2.40e-11   -2.50e-11   -2.50e-11   -1.28e-11   -6.80e-12
Vd:     -2.40e+01   -2.50e+01   -2.50e+01   -1.28e+01   -6.80e+00
Req:     1.00e+12    1.00e+12    1.00e+12    1.00e+12    1.00e+12
CAP:     0.00e+00    0.00e+00    0.00e+00    0.00e+00    0.00e+00

Name:   d:x1:u1:p  d:x1:u1:ln  d:x1:u1:lp   d:x1:u1:e   d:x1:u1:c
Model:  x1:u1:dx    x1:u1:dx    x1:u1:dx    x1:u1:dx    x1:u1:dx
Id:     -2.40e-11   -2.49e-11   -2.51e-11   -9.50e-12   -1.01e-11
Vd:     -2.40e+01   -2.49e+01   -2.51e+01   -9.50e+00   -1.01e+01
Req:     1.00e+12    1.00e+12    1.00e+12    1.00e+12    1.00e+12
CAP:     0.00e+00    0.00e+00    0.00e+00    0.00e+00    0.00e+00

Name:   d:x3:u1:3   d:x3:u1:4   d:x3:u1:6   d:x3:u1:5   d:x3:u1:2
Model:  x3:u1:dx    x3:u1:dx    x3:u1:dx    x3:u1:dx    x3:u1:dx
Id:     -1.68e-13   -1.94e-13    1.23e-04    4.65e-05   -1.91e-11
Vd:     -1.67e-01   -1.93e-01    6.60e-01    6.35e-01   -1.91e+01
Req:     1.00e+12    1.00e+12    2.11e+02    5.56e+02    1.00e+12
CAP:     0.00e+00    0.00e+00    0.00e+00    0.00e+00    0.00e+00

Name:   d:x3:u1:1
Model:  x3:u1:dx
Id:     -1.60e-12
Vd:     -1.60e+00
Req:     1.00e+12
CAP:     0.00e+00

                        --- Bipolar Transistors ---
Name:     q:x3:1     q:x3:u1:2   q:x3:u1:1
Model:    bc547b     x3:u1:qx    x3:u1:qx
Ib:       7.62e-05    7.99e-08    7.98e-08
Ic:       2.00e-02    5.00e-05    4.99e-05
Vbe:      7.28e-01    6.97e-01    6.97e-01
Vbc:     -3.25e+00   -7.97e+00   -7.97e+00
Vce:      3.98e+00    8.67e+00    8.67e+00
BetaDC:   2.62e+02    6.25e+02    6.25e+02
Gm:       6.81e-01    1.93e-03    1.93e-03
Rpi:      3.42e+02    3.24e+05    3.24e+05
Rx:       1.00e+00    0.00e+00    0.00e+00
Ro:       3.23e+03    0.00e+00    0.00e+00
Cbe:      4.23e-10    0.00e+00    0.00e+00
Cbc:      1.20e-12    0.00e+00    0.00e+00
Cjs:      0.00e+00    0.00e+00    0.00e+00
BetaAC:   2.33e+02    6.25e+02    6.25e+02
Cbx:      7.39e-13    0.00e+00    0.00e+00
Ft:       2.55e+08    0.00e+00    0.00e+00

                        --- JFET Transistors ---
Name:   j:x1:u3:2   j:x1:u3:1   j:x1:u2:2   j:x1:u2:1   j:x1:u1:2
Model:  x1:u3:jx    x1:u3:jx    x1:u2:jx    x1:u2:jx    x1:u1:jx
Id:     -9.75e-05   -9.75e-05   -9.76e-05   -9.76e-05   -9.78e-05
Vgs:     3.99e-01    3.99e-01    3.99e-01    3.99e-01    3.98e-01
Vds:    -1.16e+01   -1.16e+01   -1.15e+01   -1.15e+01   -1.10e+01
Gm:      3.25e-04    3.25e-04    3.25e-04    3.25e-04    3.25e-04
Gds:     0.00e+00    0.00e+00    0.00e+00    0.00e+00    0.00e+00
Cgs:     0.00e+00    0.00e+00    0.00e+00    0.00e+00    0.00e+00
Cgd:     0.00e+00    0.00e+00    0.00e+00    0.00e+00    0.00e+00

Name:   j:x1:u1:1
Model:  x1:u1:jx
Id:     -9.78e-05
Vgs:     3.98e-01
Vds:    -1.10e+01
Gm:      3.25e-04
Gds:     0.00e+00
Cgs:     0.00e+00
Cgd:     0.00e+00



Date: Mon Sep 22 09:47:29 2025
Total elapsed time: 13.872 seconds.

tnom = 27
temp = 27
method = trap
totiter = 1717
traniter = 0
tranpoints = 0
accept = 0
rejected = 0
matrix size = 114
fillins = 551
solver = Normal

